Title: * C:\projects\ice_ltspice\showfile.asc
Date: Sun Aug 23 19:37:47 2020
Plotname: Transient Analysis
Flags: real forward
No. Variables: 7
No. Points:         1045
Offset:   0.0000000000000000e+000
Command: Linear Technology Corporation LTspice XVII
Variables:
	0	time	time
	1	V(n001)	voltage
	2	V(n002)	voltage
	3	I(R3)	device_current
	4	I(R2)	device_current
	5	I(R1)	device_current
	6	I(V1)	device_current
Values:
0		0.000000000000000e+000
	1.000000000000000e+001
	4.109543365881491e+000
	9.360997032357972e-001
	1.027385841470373e+000
	-1.963485544706170e+000
	-1.963485544706169e+000
1		9.999999717180685e-010
	1.000000000000000e+001
	4.109543365881491e+000
	9.360997032357972e-001
	1.027385841470373e+000
	-1.963485544706170e+000
	-1.963485544706169e+000
2		1.999999943436137e-009
	1.000000000000000e+001
	4.109543365881491e+000
	9.360997032357972e-001
	1.027385841470373e+000
	-1.963485544706170e+000
	-1.963485544706169e+000
3		3.999999886872274e-009
	1.000000000000000e+001
	4.109543365881491e+000
	9.360997032357972e-001
	1.027385841470373e+000
	-1.963485544706170e+000
	-1.963485544706169e+000
4		7.999999773744548e-009
	1.000000000000000e+001
	4.109543365881491e+000
	9.360997032357972e-001
	1.027385841470373e+000
	-1.963485544706170e+000
	-1.963485544706169e+000
5		1.599999954748910e-008
	1.000000000000000e+001
	4.109543365881491e+000
	9.360997032357972e-001
	1.027385841470373e+000
	-1.963485544706170e+000
	-1.963485544706169e+000
6		3.199999909497819e-008
	1.000000000000000e+001
	4.109543365881491e+000
	9.360997032357972e-001
	1.027385841470373e+000
	-1.963485544706170e+000
	-1.963485544706169e+000
7		6.399999818995639e-008
	1.000000000000000e+001
	4.109543365881491e+000
	9.360997032357972e-001
	1.027385841470373e+000
	-1.963485544706170e+000
	-1.963485544706169e+000
8		1.279999963799128e-007
	1.000000000000000e+001
	4.109543365881491e+000
	9.360997032357972e-001
	1.027385841470373e+000
	-1.963485544706170e+000
	-1.963485544706169e+000
9		2.559999927598256e-007
	1.000000000000000e+001
	4.109543365881491e+000
	9.360997032357972e-001
	1.027385841470373e+000
	-1.963485544706170e+000
	-1.963485544706169e+000
10		5.119999855196511e-007
	1.000000000000000e+001
	4.109543365881491e+000
	9.360997032357972e-001
	1.027385841470373e+000
	-1.963485544706170e+000
	-1.963485544706169e+000
11		1.023999971039302e-006
	1.000000000000000e+001
	4.109543365881491e+000
	9.360997032357972e-001
	1.027385841470373e+000
	-1.963485544706170e+000
	-1.963485544706169e+000
12		2.047999942078604e-006
	1.000000000000000e+001
	4.109543365881491e+000
	9.360997032357972e-001
	1.027385841470373e+000
	-1.963485544706170e+000
	-1.963485544706169e+000
13		4.095999884157209e-006
	1.000000000000000e+001
	4.109543365881491e+000
	9.360997032357972e-001
	1.027385841470373e+000
	-1.963485544706170e+000
	-1.963485544706169e+000
14		8.191999768314418e-006
	1.000000000000000e+001
	4.109543365881491e+000
	9.360997032357972e-001
	1.027385841470373e+000
	-1.963485544706170e+000
	-1.963485544706169e+000
15		1.638399953662884e-005
	1.000000000000000e+001
	4.109543365881491e+000
	9.360997032357972e-001
	1.027385841470373e+000
	-1.963485544706170e+000
	-1.963485544706169e+000
16		3.276799907325767e-005
	1.000000000000000e+001
	4.109543365881491e+000
	9.360997032357972e-001
	1.027385841470373e+000
	-1.963485544706170e+000
	-1.963485544706169e+000
17		6.553599814651534e-005
	1.000000000000000e+001
	4.109543365881491e+000
	9.360997032357972e-001
	1.027385841470373e+000
	-1.963485544706170e+000
	-1.963485544706169e+000
18		1.310719962930307e-004
	1.000000000000000e+001
	4.109543365881491e+000
	9.360997032357972e-001
	1.027385841470373e+000
	-1.963485544706170e+000
	-1.963485544706169e+000
19		2.621439925860614e-004
	1.000000000000000e+001
	4.109543365881491e+000
	9.360997032357972e-001
	1.027385841470373e+000
	-1.963485544706170e+000
	-1.963485544706169e+000
20		5.242879851721227e-004
	1.000000000000000e+001
	4.109543365881491e+000
	9.360997032357972e-001
	1.027385841470373e+000
	-1.963485544706170e+000
	-1.963485544706169e+000
21		1.048575970344245e-003
	1.000000000000000e+001
	4.109543365881491e+000
	9.360997032357972e-001
	1.027385841470373e+000
	-1.963485544706170e+000
	-1.963485544706169e+000
22		2.025138470344245e-003
	1.000000000000000e+001
	4.109543365881491e+000
	9.360997032357972e-001
	1.027385841470373e+000
	-1.963485544706170e+000
	-1.963485544706169e+000
23		3.001700970344245e-003
	1.000000000000000e+001
	4.109543365881491e+000
	9.360997032357972e-001
	1.027385841470373e+000
	-1.963485544706170e+000
	-1.963485544706169e+000
24		3.978263470344245e-003
	1.000000000000000e+001
	4.109543365881491e+000
	9.360997032357972e-001
	1.027385841470373e+000
	-1.963485544706170e+000
	-1.963485544706169e+000
25		4.954825970344245e-003
	1.000000000000000e+001
	4.109543365881491e+000
	9.360997032357972e-001
	1.027385841470373e+000
	-1.963485544706170e+000
	-1.963485544706169e+000
26		5.931388470344245e-003
	1.000000000000000e+001
	4.109543365881491e+000
	9.360997032357972e-001
	1.027385841470373e+000
	-1.963485544706170e+000
	-1.963485544706169e+000
27		6.907950970344245e-003
	1.000000000000000e+001
	4.109543365881491e+000
	9.360997032357972e-001
	1.027385841470373e+000
	-1.963485544706170e+000
	-1.963485544706169e+000
28		7.884513470344245e-003
	1.000000000000000e+001
	4.109543365881491e+000
	9.360997032357972e-001
	1.027385841470373e+000
	-1.963485544706170e+000
	-1.963485544706169e+000
29		8.861075970344245e-003
	1.000000000000000e+001
	4.109543365881491e+000
	9.360997032357972e-001
	1.027385841470373e+000
	-1.963485544706170e+000
	-1.963485544706169e+000
30		9.837638470344245e-003
	1.000000000000000e+001
	4.109543365881491e+000
	9.360997032357972e-001
	1.027385841470373e+000
	-1.963485544706170e+000
	-1.963485544706169e+000
31		1.081420097034425e-002
	1.000000000000000e+001
	4.109543365881491e+000
	9.360997032357972e-001
	1.027385841470373e+000
	-1.963485544706170e+000
	-1.963485544706169e+000
32		1.179076347034425e-002
	1.000000000000000e+001
	4.109543365881491e+000
	9.360997032357972e-001
	1.027385841470373e+000
	-1.963485544706170e+000
	-1.963485544706169e+000
33		1.276732597034425e-002
	1.000000000000000e+001
	4.109543365881491e+000
	9.360997032357972e-001
	1.027385841470373e+000
	-1.963485544706170e+000
	-1.963485544706169e+000
34		1.374388847034425e-002
	1.000000000000000e+001
	4.109543365881491e+000
	9.360997032357972e-001
	1.027385841470373e+000
	-1.963485544706170e+000
	-1.963485544706169e+000
35		1.472045097034425e-002
	1.000000000000000e+001
	4.109543365881491e+000
	9.360997032357972e-001
	1.027385841470373e+000
	-1.963485544706170e+000
	-1.963485544706169e+000
36		1.569701347034425e-002
	1.000000000000000e+001
	4.109543365881491e+000
	9.360997032357972e-001
	1.027385841470373e+000
	-1.963485544706170e+000
	-1.963485544706169e+000
37		1.667357597034425e-002
	1.000000000000000e+001
	4.109543365881491e+000
	9.360997032357972e-001
	1.027385841470373e+000
	-1.963485544706170e+000
	-1.963485544706169e+000
38		1.765013847034425e-002
	1.000000000000000e+001
	4.109543365881491e+000
	9.360997032357972e-001
	1.027385841470373e+000
	-1.963485544706170e+000
	-1.963485544706169e+000
39		1.862670097034425e-002
	1.000000000000000e+001
	4.109543365881491e+000
	9.360997032357972e-001
	1.027385841470373e+000
	-1.963485544706170e+000
	-1.963485544706169e+000
40		1.960326347034425e-002
	1.000000000000000e+001
	4.109543365881491e+000
	9.360997032357972e-001
	1.027385841470373e+000
	-1.963485544706170e+000
	-1.963485544706169e+000
41		2.057982597034425e-002
	1.000000000000000e+001
	4.109543365881491e+000
	9.360997032357972e-001
	1.027385841470373e+000
	-1.963485544706170e+000
	-1.963485544706169e+000
42		2.155638847034425e-002
	1.000000000000000e+001
	4.109543365881491e+000
	9.360997032357972e-001
	1.027385841470373e+000
	-1.963485544706170e+000
	-1.963485544706169e+000
43		2.253295097034425e-002
	1.000000000000000e+001
	4.109543365881491e+000
	9.360997032357972e-001
	1.027385841470373e+000
	-1.963485544706170e+000
	-1.963485544706169e+000
44		2.350951347034425e-002
	1.000000000000000e+001
	4.109543365881491e+000
	9.360997032357972e-001
	1.027385841470373e+000
	-1.963485544706170e+000
	-1.963485544706169e+000
45		2.448607597034425e-002
	1.000000000000000e+001
	4.109543365881491e+000
	9.360997032357972e-001
	1.027385841470373e+000
	-1.963485544706170e+000
	-1.963485544706169e+000
46		2.546263847034425e-002
	1.000000000000000e+001
	4.109543365881491e+000
	9.360997032357972e-001
	1.027385841470373e+000
	-1.963485544706170e+000
	-1.963485544706169e+000
47		2.643920097034425e-002
	1.000000000000000e+001
	4.109543365881491e+000
	9.360997032357972e-001
	1.027385841470373e+000
	-1.963485544706170e+000
	-1.963485544706169e+000
48		2.741576347034425e-002
	1.000000000000000e+001
	4.109543365881491e+000
	9.360997032357972e-001
	1.027385841470373e+000
	-1.963485544706170e+000
	-1.963485544706169e+000
49		2.839232597034425e-002
	1.000000000000000e+001
	4.109543365881491e+000
	9.360997032357972e-001
	1.027385841470373e+000
	-1.963485544706170e+000
	-1.963485544706169e+000
50		2.936888847034425e-002
	1.000000000000000e+001
	4.109543365881491e+000
	9.360997032357972e-001
	1.027385841470373e+000
	-1.963485544706170e+000
	-1.963485544706169e+000
51		3.034545097034425e-002
	1.000000000000000e+001
	4.109543365881491e+000
	9.360997032357972e-001
	1.027385841470373e+000
	-1.963485544706170e+000
	-1.963485544706169e+000
52		3.132201347034425e-002
	1.000000000000000e+001
	4.109543365881491e+000
	9.360997032357972e-001
	1.027385841470373e+000
	-1.963485544706170e+000
	-1.963485544706169e+000
53		3.229857597034425e-002
	1.000000000000000e+001
	4.109543365881491e+000
	9.360997032357972e-001
	1.027385841470373e+000
	-1.963485544706170e+000
	-1.963485544706169e+000
54		3.327513847034425e-002
	1.000000000000000e+001
	4.109543365881491e+000
	9.360997032357972e-001
	1.027385841470373e+000
	-1.963485544706170e+000
	-1.963485544706169e+000
55		3.425170097034425e-002
	1.000000000000000e+001
	4.109543365881491e+000
	9.360997032357972e-001
	1.027385841470373e+000
	-1.963485544706170e+000
	-1.963485544706169e+000
56		3.522826347034425e-002
	1.000000000000000e+001
	4.109543365881491e+000
	9.360997032357972e-001
	1.027385841470373e+000
	-1.963485544706170e+000
	-1.963485544706169e+000
57		3.620482597034425e-002
	1.000000000000000e+001
	4.109543365881491e+000
	9.360997032357972e-001
	1.027385841470373e+000
	-1.963485544706170e+000
	-1.963485544706169e+000
58		3.718138847034425e-002
	1.000000000000000e+001
	4.109543365881491e+000
	9.360997032357972e-001
	1.027385841470373e+000
	-1.963485544706170e+000
	-1.963485544706169e+000
59		3.815795097034425e-002
	1.000000000000000e+001
	4.109543365881491e+000
	9.360997032357972e-001
	1.027385841470373e+000
	-1.963485544706170e+000
	-1.963485544706169e+000
60		3.913451347034425e-002
	1.000000000000000e+001
	4.109543365881491e+000
	9.360997032357972e-001
	1.027385841470373e+000
	-1.963485544706170e+000
	-1.963485544706169e+000
61		4.011107597034425e-002
	1.000000000000000e+001
	4.109543365881491e+000
	9.360997032357972e-001
	1.027385841470373e+000
	-1.963485544706170e+000
	-1.963485544706169e+000
62		4.108763847034425e-002
	1.000000000000000e+001
	4.109543365881491e+000
	9.360997032357972e-001
	1.027385841470373e+000
	-1.963485544706170e+000
	-1.963485544706169e+000
63		4.206420097034425e-002
	1.000000000000000e+001
	4.109543365881491e+000
	9.360997032357972e-001
	1.027385841470373e+000
	-1.963485544706170e+000
	-1.963485544706169e+000
64		4.304076347034425e-002
	1.000000000000000e+001
	4.109543365881491e+000
	9.360997032357972e-001
	1.027385841470373e+000
	-1.963485544706170e+000
	-1.963485544706169e+000
65		4.401732597034425e-002
	1.000000000000000e+001
	4.109543365881491e+000
	9.360997032357972e-001
	1.027385841470373e+000
	-1.963485544706170e+000
	-1.963485544706169e+000
66		4.499388847034425e-002
	1.000000000000000e+001
	4.109543365881491e+000
	9.360997032357972e-001
	1.027385841470373e+000
	-1.963485544706170e+000
	-1.963485544706169e+000
67		4.597045097034425e-002
	1.000000000000000e+001
	4.109543365881491e+000
	9.360997032357972e-001
	1.027385841470373e+000
	-1.963485544706170e+000
	-1.963485544706169e+000
68		4.694701347034425e-002
	1.000000000000000e+001
	4.109543365881491e+000
	9.360997032357972e-001
	1.027385841470373e+000
	-1.963485544706170e+000
	-1.963485544706169e+000
69		4.792357597034425e-002
	1.000000000000000e+001
	4.109543365881491e+000
	9.360997032357972e-001
	1.027385841470373e+000
	-1.963485544706170e+000
	-1.963485544706169e+000
70		4.890013847034425e-002
	1.000000000000000e+001
	4.109543365881491e+000
	9.360997032357972e-001
	1.027385841470373e+000
	-1.963485544706170e+000
	-1.963485544706169e+000
71		4.987670097034425e-002
	1.000000000000000e+001
	4.109543365881491e+000
	9.360997032357972e-001
	1.027385841470373e+000
	-1.963485544706170e+000
	-1.963485544706169e+000
72		5.085326347034425e-002
	1.000000000000000e+001
	4.109543365881491e+000
	9.360997032357972e-001
	1.027385841470373e+000
	-1.963485544706170e+000
	-1.963485544706169e+000
73		5.182982597034425e-002
	1.000000000000000e+001
	4.109543365881491e+000
	9.360997032357972e-001
	1.027385841470373e+000
	-1.963485544706170e+000
	-1.963485544706169e+000
74		5.280638847034425e-002
	1.000000000000000e+001
	4.109543365881491e+000
	9.360997032357972e-001
	1.027385841470373e+000
	-1.963485544706170e+000
	-1.963485544706169e+000
75		5.378295097034425e-002
	1.000000000000000e+001
	4.109543365881491e+000
	9.360997032357972e-001
	1.027385841470373e+000
	-1.963485544706170e+000
	-1.963485544706169e+000
76		5.475951347034425e-002
	1.000000000000000e+001
	4.109543365881491e+000
	9.360997032357972e-001
	1.027385841470373e+000
	-1.963485544706170e+000
	-1.963485544706169e+000
77		5.573607597034425e-002
	1.000000000000000e+001
	4.109543365881491e+000
	9.360997032357972e-001
	1.027385841470373e+000
	-1.963485544706170e+000
	-1.963485544706169e+000
78		5.671263847034425e-002
	1.000000000000000e+001
	4.109543365881491e+000
	9.360997032357972e-001
	1.027385841470373e+000
	-1.963485544706170e+000
	-1.963485544706169e+000
79		5.768920097034425e-002
	1.000000000000000e+001
	4.109543365881491e+000
	9.360997032357972e-001
	1.027385841470373e+000
	-1.963485544706170e+000
	-1.963485544706169e+000
80		5.866576347034425e-002
	1.000000000000000e+001
	4.109543365881491e+000
	9.360997032357972e-001
	1.027385841470373e+000
	-1.963485544706170e+000
	-1.963485544706169e+000
81		5.964232597034425e-002
	1.000000000000000e+001
	4.109543365881491e+000
	9.360997032357972e-001
	1.027385841470373e+000
	-1.963485544706170e+000
	-1.963485544706169e+000
82		6.061888847034425e-002
	1.000000000000000e+001
	4.109543365881491e+000
	9.360997032357972e-001
	1.027385841470373e+000
	-1.963485544706170e+000
	-1.963485544706169e+000
83		6.159545097034425e-002
	1.000000000000000e+001
	4.109543365881491e+000
	9.360997032357972e-001
	1.027385841470373e+000
	-1.963485544706170e+000
	-1.963485544706169e+000
84		6.257201347034425e-002
	1.000000000000000e+001
	4.109543365881491e+000
	9.360997032357972e-001
	1.027385841470373e+000
	-1.963485544706170e+000
	-1.963485544706169e+000
85		6.354857597034425e-002
	1.000000000000000e+001
	4.109543365881491e+000
	9.360997032357972e-001
	1.027385841470373e+000
	-1.963485544706170e+000
	-1.963485544706169e+000
86		6.452513847034425e-002
	1.000000000000000e+001
	4.109543365881491e+000
	9.360997032357972e-001
	1.027385841470373e+000
	-1.963485544706170e+000
	-1.963485544706169e+000
87		6.550170097034425e-002
	1.000000000000000e+001
	4.109543365881491e+000
	9.360997032357972e-001
	1.027385841470373e+000
	-1.963485544706170e+000
	-1.963485544706169e+000
88		6.647826347034425e-002
	1.000000000000000e+001
	4.109543365881491e+000
	9.360997032357972e-001
	1.027385841470373e+000
	-1.963485544706170e+000
	-1.963485544706169e+000
89		6.745482597034425e-002
	1.000000000000000e+001
	4.109543365881491e+000
	9.360997032357972e-001
	1.027385841470373e+000
	-1.963485544706170e+000
	-1.963485544706169e+000
90		6.843138847034425e-002
	1.000000000000000e+001
	4.109543365881491e+000
	9.360997032357972e-001
	1.027385841470373e+000
	-1.963485544706170e+000
	-1.963485544706169e+000
91		6.940795097034425e-002
	1.000000000000000e+001
	4.109543365881491e+000
	9.360997032357972e-001
	1.027385841470373e+000
	-1.963485544706170e+000
	-1.963485544706169e+000
92		7.038451347034425e-002
	1.000000000000000e+001
	4.109543365881491e+000
	9.360997032357972e-001
	1.027385841470373e+000
	-1.963485544706170e+000
	-1.963485544706169e+000
93		7.136107597034425e-002
	1.000000000000000e+001
	4.109543365881491e+000
	9.360997032357972e-001
	1.027385841470373e+000
	-1.963485544706170e+000
	-1.963485544706169e+000
94		7.233763847034425e-002
	1.000000000000000e+001
	4.109543365881491e+000
	9.360997032357972e-001
	1.027385841470373e+000
	-1.963485544706170e+000
	-1.963485544706169e+000
95		7.331420097034425e-002
	1.000000000000000e+001
	4.109543365881491e+000
	9.360997032357972e-001
	1.027385841470373e+000
	-1.963485544706170e+000
	-1.963485544706169e+000
96		7.429076347034425e-002
	1.000000000000000e+001
	4.109543365881491e+000
	9.360997032357972e-001
	1.027385841470373e+000
	-1.963485544706170e+000
	-1.963485544706169e+000
97		7.526732597034425e-002
	1.000000000000000e+001
	4.109543365881491e+000
	9.360997032357972e-001
	1.027385841470373e+000
	-1.963485544706170e+000
	-1.963485544706169e+000
98		7.624388847034425e-002
	1.000000000000000e+001
	4.109543365881491e+000
	9.360997032357972e-001
	1.027385841470373e+000
	-1.963485544706170e+000
	-1.963485544706169e+000
99		7.722045097034425e-002
	1.000000000000000e+001
	4.109543365881491e+000
	9.360997032357972e-001
	1.027385841470373e+000
	-1.963485544706170e+000
	-1.963485544706169e+000
100		7.819701347034425e-002
	1.000000000000000e+001
	4.109543365881491e+000
	9.360997032357972e-001
	1.027385841470373e+000
	-1.963485544706170e+000
	-1.963485544706169e+000
101		7.917357597034425e-002
	1.000000000000000e+001
	4.109543365881491e+000
	9.360997032357972e-001
	1.027385841470373e+000
	-1.963485544706170e+000
	-1.963485544706169e+000
102		8.015013847034425e-002
	1.000000000000000e+001
	4.109543365881491e+000
	9.360997032357972e-001
	1.027385841470373e+000
	-1.963485544706170e+000
	-1.963485544706169e+000
103		8.112670097034425e-002
	1.000000000000000e+001
	4.109543365881491e+000
	9.360997032357972e-001
	1.027385841470373e+000
	-1.963485544706170e+000
	-1.963485544706169e+000
104		8.210326347034425e-002
	1.000000000000000e+001
	4.109543365881491e+000
	9.360997032357972e-001
	1.027385841470373e+000
	-1.963485544706170e+000
	-1.963485544706169e+000
105		8.307982597034425e-002
	1.000000000000000e+001
	4.109543365881491e+000
	9.360997032357972e-001
	1.027385841470373e+000
	-1.963485544706170e+000
	-1.963485544706169e+000
106		8.405638847034425e-002
	1.000000000000000e+001
	4.109543365881491e+000
	9.360997032357972e-001
	1.027385841470373e+000
	-1.963485544706170e+000
	-1.963485544706169e+000
107		8.503295097034425e-002
	1.000000000000000e+001
	4.109543365881491e+000
	9.360997032357972e-001
	1.027385841470373e+000
	-1.963485544706170e+000
	-1.963485544706169e+000
108		8.600951347034425e-002
	1.000000000000000e+001
	4.109543365881491e+000
	9.360997032357972e-001
	1.027385841470373e+000
	-1.963485544706170e+000
	-1.963485544706169e+000
109		8.698607597034425e-002
	1.000000000000000e+001
	4.109543365881491e+000
	9.360997032357972e-001
	1.027385841470373e+000
	-1.963485544706170e+000
	-1.963485544706169e+000
110		8.796263847034425e-002
	1.000000000000000e+001
	4.109543365881491e+000
	9.360997032357972e-001
	1.027385841470373e+000
	-1.963485544706170e+000
	-1.963485544706169e+000
111		8.893920097034425e-002
	1.000000000000000e+001
	4.109543365881491e+000
	9.360997032357972e-001
	1.027385841470373e+000
	-1.963485544706170e+000
	-1.963485544706169e+000
112		8.991576347034425e-002
	1.000000000000000e+001
	4.109543365881491e+000
	9.360997032357972e-001
	1.027385841470373e+000
	-1.963485544706170e+000
	-1.963485544706169e+000
113		9.089232597034425e-002
